Sample in Buffer,Sample in Window,TRIGGER,dout[63:0],errorCounter[6:0],foundFrames[3:0],prbs_from_check[63:0],gt0_rxdata_i[63:0],userData[7:0],usererrorBits[63:0],usererrorCounter[6:0],searchedFrames[8:0],errorBits[63:0],mask[15:0],tot_align_err_count[23:0],userdataBits[63:0],userBits[63:0],alignAddr[9:0],aligned,bypass,errorFlag,gt0_rxusrclk2_i,SYS_RST
Radix - UNSIGNED,UNSIGNED,UNSIGNED,HEX,HEX,HEX,HEX,HEX,HEX,HEX,HEX,HEX,HEX,HEX,HEX,HEX,HEX,HEX,HEX,HEX,HEX,HEX,HEX
0,0,0,3bb255d5d8cd172c,1f,0,b648e17cae689e28,e6efaf508cdbfe58,00,0080008000800080,04,049,2288f4bcaf7dae8c,0000,51fcea,0000000000000000,0000000000000000,018,0,0,1,0,0
1,1,0,cbe189e3800915de,21,0,74b1bdad92385f2b,72c34940bfdc1725,00,0080008000800080,04,04a,060b0c0f030c080e,0000,51fd09,0000000000000000,0000000000000000,018,0,0,1,0,0
2,2,0,91d72a6c6a678918,29,0,ae689e286081fd53,a8b9f18a49ff23cb,00,0080008000800080,04,04b,2c87ffbaa170ae82,0000,51fd2a,0000000000000000,0000000000000000,018,0,0,1,0,0
3,3,0,e77f46f946020dea,1d,0,99dd2c6f6b648e17,6a7451483bc3f6dc,00,0080008000800080,04,04c,4f03e8784af54807,0000,51fd53,0000000000000000,0000000000000000,018,0,0,1,0,0
4,4,0,4fe8983dbfbb440b,27,0,81fd533ba58ded6c,cd5f5e255973b835,00,0080008000800080,04,04d,658917cbe088e88d,0000,51fd70,0000000000000000,0000000000000000,018,0,0,1,0,0
5,5,0,ffb0a774a58604fb,22,0,dd2c6f6b648e17ca,e106d2013b7c6acb,00,0080008000800080,04,04e,080a06030103070f,0000,51fd97,0000000000000000,0000000000000000,018,0,0,1,0,0
6,6,0,a57d4f13d3d52386,13,0,637b5b2470be5734,51f7a7d4933a0716,00,0080008000800080,04,04f,668215c2e38fe086,0000,51fdb9,0000000000000000,0000000000000000,018,0,0,1,0,0
7,7,0,f453d8365cc406f2,21,0,70be57344f143040,946ce6503347e93d,00,0080008000800080,04,050,92c4f756db3553c1,0000,51fdcc,0000000000000000,0000000000000000,018,0,0,1,0,0
8,8,0,5e36a78fee6e98c6,1d,0,689e286081fd533b,da3ab88af66334ae,00,0080008000800080,04,051,9ccbfc50d53853cf,0000,51fded,0000000000000000,0000000000000000,018,0,0,1,0,0
9,9,0,72a86895286580f2,1d,0,85f2b9a278a18207,c28da082727cd557,00,0080008000800080,04,052,d5c318279cc113c6,0000,51fe0a,0000000000000000,0000000000000000,018,0,0,1,0,0
10,10,0,ac97dac4fdb94de1,11,0,aa6774b1bdad9238,a76b0f2d62f04ea9,00,0080008000800080,04,053,9ccdf056dd3955c9,0000,51fe27,0000000000000000,0000000000000000,018,0,0,1,0,0
11,11,0,b4583b491e3d44f0,1c,0,ee9637b5b2470be5,2c198c64624fd2be,00,0080008000800080,04,054,dbc41e2d96cf1ac1,0000,51fe38,0000000000000000,0000000000000000,018,0,0,1,0,0
12,12,0,5ecdec677253237d,22,0,0c103faa6774b1bd,b0b17595a8066d9d,00,0080008000800080,04,055,d8cf1c2495c812ca,0000,51fe54,0000000000000000,0000000000000000,018,0,0,1,0,0
13,13,0,552e93258b112174,23,0,a18207f54cee9637,c5db41c4a03dee6b,00,0080008000800080,04,056,4201ed714ffe4604,0000,51fe76,0000000000000000,0000000000000000,018,0,0,1,0,0
14,14,0,ae657bb9b6aa9a34,1d,0,aa6774b1bdad9238,4e165e9ac564ddd3,00,0080008000800080,04,057,b84804e37949f54d,0000,51fe99,0000000000000000,0000000000000000,018,0,0,1,0,0
15,15,0,289ecb1ac20b1c34,23,0,5f2b9a278a18207f,18f71848845fe1b9,00,0080008000800080,04,058,ff4feb923ebdb54a,0000,51feb6,0000000000000000,0000000000000000,018,0,0,1,0,0
16,16,0,da3fb651d1dcc913,21,0,9dd2c6f6b648e17c,65a6afef10cc9bbe,00,0080008000800080,04,059,ff49e79436bcb34c,0000,51fed9,0000000000000000,0000000000000000,018,0,0,1,0,0
17,17,0,1ccfe58de7840d11,1c,0,f6b648e17cae689e,8b32830900ff9c57,00,0080008000800080,04,05a,f14ee19e3cb2ba4b,0000,51fefa,0000000000000000,0000000000000000,018,0,0,1,0,0
18,18,0,ee95d32e686e638d,1d,0,50c103faa6774b1b,9ce8f9b1ca09bf63,00,0080008000800080,04,05b,b54c0dec7443fd48,0000,51ff16,0000000000000000,0000000000000000,018,0,0,1,0,0
19,19,0,0fe37b42fd420609,1e,0,1fd533ba58ded6c9,752a3411087b83b6,00,0080008000800080,04,05c,2c89feb0ad72a18d,0000,51ff33,0000000000000000,0000000000000000,018,0,0,1,0,0
20,20,0,ff4bec9c39bbbf40,29,0,b9a278a18207f54c,8b8d1f1e651933f8,00,0080008000800080,04,05d,4c0ee67741f3460a,0000,51ff51,0000000000000000,0000000000000000,018,0,0,1,0,0
21,21,0,82fbb4a370a18200,25,0,470be57344f14304,56a14692417b3c2a,00,0080008000800080,04,05e,f140e09430b0b544,0000,51ff7a,0000000000000000,0000000000000000,018,0,0,1,0,0
22,22,0,f6a1794b17d7d127,23,0,70be57344f143040,7d11b7e794d37a47,00,0080008000800080,04,05f,b64103e37f45f345,0000,51ff9f,0000000000000000,0000000000000000,018,0,0,1,0,0
23,23,0,c2f057dc3258c002,20,0,d92385f2b9a278a1,eed42ca6107307a9,00,0080008000800080,04,060,b84009ef7d4afc44,0000,51ffc2,0000000000000000,0000000000000000,018,0,0,1,0,0
24,24,0,f65a32a38bea6a9c,20,0,143040fea99dd2c6,179a7af8cab62374,00,0080008000800080,04,061,f245e3973fb5b240,0000,51ffe2,0000000000000000,0000000000000000,018,0,0,1,0,0
25,25,0,e576ac6c912c6184,1e,0,fd533ba58ded6c91,e982cde0c2323c95,00,0080008000800080,04,062,2f82fcb9ae75a986,0000,520002,0000000000000000,0000000000000000,018,0,0,1,0,0
26,26,0,f4a893dec0f9bd49,18,0,143040fea99dd2c6,fee72b4f6d22b00e,00,0080008000800080,04,063,d6c017229bc512c4,0000,520020,0000000000000000,0000000000000000,018,0,0,1,0,0
27,27,0,79b05c3f4d1a3940,21,0,4cee9637b5b2470b,dd6c59cc24220f92,00,0080008000800080,04,064,0b0909060607060d,0000,520038,0000000000000000,0000000000000000,018,0,0,1,0,0
28,28,0,705ac9e863765727,1f,0,85f2b9a278a18207,2bf0f135d5e8462d,00,0080008000800080,04,065,f146ec9238b1b342,0000,520059,0000000000000000,0000000000000000,018,0,0,1,0,0
29,29,0,30512a97218f1525,22,0,1bdad92385f2b9a2,93859b0184e07dae,00,0080008000800080,04,066,b84605e9754bfa42,0000,520078,0000000000000000,0000000000000000,018,0,0,1,0,0
30,30,0,30aa617fbdb2ae9e,23,0,7f54cee9637b5b24,f90e561eda85249d,00,0080008000800080,04,067,fc42e59d35bbbb47,0000,52009a,0000000000000000,0000000000000000,018,0,0,1,0,0
31,31,0,172c9acf1ec60f18,1b,0,5b2470be57344f14,fe58b75808c41fa1,00,0080008000800080,04,068,6b8010cbe684ee85,0000,5200bd,0000000000000000,0000000000000000,018,0,0,1,0,0
32,32,0,15de3bb255d5d8cd,13,0,5b2470be57344f14,1725e6efaf508cdb,00,0080008000800080,04,069,4f05e47e42f44e01,0000,5200d8,0000000000000000,0000000000000000,018,0,0,1,0,0
33,33,0,8918cbe189e38009,1e,0,ea99dd2c6f6b648e,23cb72c34940bfdc,00,0080008000800080,04,06a,6b8e11c1ea86e18a,0000,5200eb,0000000000000000,0000000000000000,018,0,0,1,0,0
34,34,0,0dea91d72a6c6a67,1f,0,7b5b2470be57344f,f6dca8b9f18a49ff,00,0080008000800080,04,06b,4c08ea7149f2400c,0000,520109,0000000000000000,0000000000000000,018,0,0,1,0,0
35,35,0,440be77f46f94602,26,0,2c6f6b648e17cae6,b8356a7451483bc3,00,0080008000800080,04,06c,ff47e69e3abebc43,0000,520128,0000000000000000,0000000000000000,018,0,0,1,0,0
36,36,0,04fb4fe8983dbfbb,1c,0,d6c91c2f95cd13c5,6acbcd5f5e255973,00,0080008000800080,04,06d,f243ef9137b4b446,0000,52014e,0000000000000000,0000000000000000,018,0,0,1,0,0
37,37,0,2386ffb0a774a586,1d,0,9637b5b2470be573,0716e106d2013b7c,00,0080008000800080,04,06e,2185fab3a47ba081,0000,52016a,0000000000000000,0000000000000000,018,0,0,1,0,0
38,38,0,06f2a57d4f13d3d5,1d,0,b2470be57344f143,e93d51f7a7d4933a,00,0080008000800080,04,06f,92c2fb50d33455c7,0000,520187,0000000000000000,0000000000000000,018,0,0,1,0,0
39,39,0,98c6f453d8365cc4,18,0,03faa6774b1bdad9,34ae946ce6503347,00,0080008000800080,04,070,92ccfa5adf365ac8,0000,5201a4,0000000000000000,0000000000000000,018,0,0,1,0,0
40,40,0,80f25e36a78fee6e,28,0,2385f2b9a278a182,d557da3ab88af663,00,0080008000800080,04,071,91c1f455d43054c5,0000,5201bc,0000000000000000,0000000000000000,018,0,0,1,0,0
41,41,0,4de172a868952865,22,0,e57344f143040fea,4ea9c28da082727c,00,0080008000800080,04,072,0508030a0408090c,0000,5201e4,0000000000000000,0000000000000000,018,0,0,1,0,0
42,42,0,44f0ac97dac4fdb9,1d,0,48e17cae689e2860,d2bea76b0f2d62f0,00,0080008000800080,04,073,bb4306ea7a4efd46,0000,520206,0000000000000000,0000000000000000,018,0,0,1,0,0
43,43,0,237db4583b491e3d,20,0,f2b9a278a18207f5,6d9d2c198c64624f,00,0080008000800080,04,074,65811ac7e48be184,0000,520223,0000000000000000,0000000000000000,018,0,0,1,0,0
44,44,0,21745ecdec677253,23,0,9637b5b2470be573,ee6bb0b17595a806,00,0080008000800080,04,075,05000e06000b0005,0000,520243,0000000000000000,0000000000000000,018,0,0,1,0,0
45,45,0,9a34552e93258b11,1c,0,03faa6774b1bdad9,ddd3c5db41c4a03d,00,0080008000800080,04,076,b6490eef7b46fa4c,0000,520266,0000000000000000,0000000000000000,018,0,0,1,0,0
46,46,0,1c34ae657bb9b6aa,0d,0,92385f2b9a278a18,e1b94e165e9ac564,00,0080008000800080,04,077,b54a01ea7c42fb4e,0000,520282,0000000000000000,0000000000000000,018,0,0,1,0,0
47,47,0,c913289ecb1ac20b,23,0,74b1bdad92385f2b,9bbe18f71848845f,00,0080008000800080,04,078,228ef8baa77ca88a,0000,52028f,0000000000000000,0000000000000000,018,0,0,1,0,0
48,48,0,0d11da3fb651d1dc,1c,0,1fd533ba58ded6c9,9c5765a6afef10cc,00,0080008000800080,04,079,080c0a0509020109,0000,5202b2,0000000000000000,0000000000000000,018,0,0,1,0,0
49,49,0,638d1ccfe58de784,0c,0,081fd533ba58ded6,bf638b32830900ff,00,0080008000800080,04,07a,688513c8e981e981,0000,5202ce,0000000000000000,0000000000000000,018,0,0,1,0,0
50,50,0,0609ee95d32e686e,24,0,d6c91c2f95cd13c5,83b69ce8f9b1ca09,00,0080008000800080,04,07b,d6c61b2493c414c2,0000,5202da,0000000000000000,0000000000000000,018,0,0,1,0,0
51,51,0,bf400fe37b42fd42,20,0,278a18207f54cee9,33f8752a3411087b,00,0080008000800080,04,07c,050e0f0c0c090f0a,0000,5202fe,0000000000000000,0000000000000000,018,0,0,1,0,0
52,52,0,8200ff4bec9c39bb,20,0,2385f2b9a278a182,3c2a8b8d1f1e6519,00,0080008000800080,04,07d,b54400e07040f441,0000,52031e,0000000000000000,0000000000000000,018,0,0,1,0,0
53,53,0,d12782fbb4a370a1,0d,0,54cee9637b5b2470,7a4756a14692417b,00,0080008000800080,04,07e,2183f6b5ac7aa687,0000,52033e,0000000000000000,0000000000000000,018,0,0,1,0,0
54,54,0,c002f6a1794b17d7,1a,0,d92385f2b9a278a1,07a97d11b7e794d3,00,0080008000800080,04,07f,9cc5fd5ad93a5cc0,0000,52034b,0000000000000000,0000000000000000,018,0,0,1,0,0
55,55,0,6a9cc2f057dc3258,1b,0,a58ded6c91c2f95c,2374eed42ca61073,00,0080008000800080,04,080,d6ce162897c71dcb,0000,520365,0000000000000000,0000000000000000,018,0,0,1,0,0
56,56,0,6184f65a32a38bea,15,0,6c91c2f95cd13c50,3c95179a7af8cab6,00,0080008000800080,04,000,080407090d010800,0000,520380,0000000000000000,0000000000000000,019,0,0,1,0,0
57,57,0,bd49e576ac6c912c,15,0,43040fea99dd2c6f,b00ee982cde0c232,00,0080008000800080,04,001,658f1bcde889ee8b,0000,520395,0000000000000000,0000000000000000,019,0,0,1,0,0
58,58,0,e402d2a14d7b03e7,21,0,b648e17cae689e28,0f92fee72b4f6d22,00,0080008000800080,04,002,060d00090b0d0e08,0000,5203aa,0000000000000000,0000000000000000,019,0,0,1,0,0
59,59,0,5e9ce6c073fc3668,22,0,c50c103faa6774b1,462ddd6c59cc2422,00,0080008000800080,04,003,2280f9b0ab7ea785,0000,5203cb,0000000000000000,0000000000000000,019,0,0,1,0,0
60,60,0,5594c26a26a38fda,22,0,4cee9637b5b2470b,7dae2bf0f135d5e8,00,0080008000800080,04,004,0b01040a02040f04,0000,5203ed,0000000000000000,0000000000000000,019,0,0,1,0,0
61,61,0,b979c146a85c853c,0c,0,aa6774b1bdad9238,249d93859b0184e0,00,0080008000800080,04,005,210ec29ee71c7756,0000,52040f,0000000000000000,0000000000000000,019,0,0,1,0,0
62,62,0,3d60c0a887fef4c9,23,0,5f2b9a278a18207f,1fa1f90e561eda85,00,0080008000800080,04,006,127270f7c64e7163,0000,52041b,0000000000000000,0000000000000000,019,0,0,1,0,0
63,63,0,63375db0683f791a,11,0,774b1bdad92385f2,8cdbfe58b75808c4,00,0080008000800080,04,007,fff3b6db9b0e1de2,0000,52043e,0000000000000000,0000000000000000,019,0,0,1,0,0
64,64,0,0125547aedc85756,1f,0,8ded6c91c2f95cd1,bfdc1725e6efaf50,00,0080008000800080,04,008,e6525b612244a543,0000,52044f,0000000000000000,0000000000000000,019,0,0,1,0,0
65,65,0,aa9e24612e87258f,0e,0,278a18207f54cee9,49ff23cb72c34940,00,0080008000800080,04,009,4a2bdb725edd713b,0000,52046e,0000000000000000,0000000000000000,019,0,0,1,0,0
66,66,0,1b0834aa455fa9b2,20,0,0000000000000000,3bc3f6dca8b9f18a,00,0080008000800080,04,00a,eeda3121aac625cb,0000,52047c,0000000000000000,0000000000000000,019,0,0,1,0,0
67,67,0,fced132c9eff1ae6,20,0,2f95cd13c50c103f,5973b8356a745148,00,0080008000800080,04,00b,26af4c5a929c99bf,0000,52049c,0000000000000000,0000000000000000,019,0,0,1,0,0
68,68,0,941911ee3fa261f5,29,0,3c50c103faa6774b,3b7c6acbcd5f5e25,00,0080008000800080,04,00c,aa9e24612e87258f,0000,5204bc,0000000000000000,0000000000000000,019,0,0,1,0,0
69,69,0,4e578d18ffc19dd3,1b,0,e17cae689e286081,933a0716e106d201,00,0080008000800080,04,00d,349df9b98053b98d,0000,5204e5,0000000000000000,0000000000000000,019,0,0,1,0,0
70,70,0,721219ca95f73e4c,25,0,33ba58ded6c91c2f,3347e93d51f7a7d4,00,0080008000800080,04,00e,c0bdd22f64596dad,0000,520500,0000000000000000,0000000000000000,019,0,0,1,0,0
71,71,0,bbbb601bd34f62d9,20,0,637b5b2470be5734,f66334ae946ce650,00,0080008000800080,04,00f,7565bf86a18a0174,0000,520525,0000000000000000,0000000000000000,019,0,0,1,0,0
72,72,0,a19600cb7bd89c3d,22,0,ee9637b5b2470be5,727cd557da3ab88a,00,0080008000800080,04,010,7dedd5c6290881fc,0000,520545,0000000000000000,0000000000000000,019,0,0,1,0,0
73,73,0,f7e53786cba0a354,1e,0,e689e286081fd533,62f04ea9c28da082,00,0080008000800080,04,011,116942eee5496978,0000,520567,0000000000000000,0000000000000000,019,0,0,1,0,0
74,74,0,78f412c2b15d6b13,21,0,dad92385f2b9a278,624fd2bea76b0f2d,00,0080008000800080,04,012,552d57ae6108693c,0000,520585,0000000000000000,0000000000000000,019,0,0,1,0,0
75,75,0,ca4e8cf6d063ec26,22,0,143040fea99dd2c6,a8066d9d2c198c64,00,0080008000800080,04,013,471fe24d73c7490e,0000,5205a6,0000000000000000,0000000000000000,019,0,0,1,0,0
76,76,0,2c4584d27a36b39f,1e,0,1bdad92385f2b9a2,a03dee6bb0b17595,00,0080008000800080,04,014,2d3c14033919012c,0000,5205c8,0000000000000000,0000000000000000,019,0,0,1,0,0
77,77,0,d9a969d156b84c95,21,0,99dd2c6f6b648e17,c564ddd3c5db41c4,00,0080008000800080,04,015,6cc4523c18c0b9d5,0000,5205e6,0000000000000000,0000000000000000,019,0,0,1,0,0
78,78,0,0a2d70d0b897eee4,1e,0,44f143040fea99dd,845fe1b94e165e9a,00,0080008000800080,04,016,d19455d555915584,0000,520607,0000000000000000,0000000000000000,019,0,0,1,0,0
79,79,0,4673274da0782f69,1e,0,c103faa6774b1bda,10cc9bbe18f71848,00,0080008000800080,04,017,b598a8bd11523d88,0000,520625,0000000000000000,0000000000000000,019,0,0,1,0,0
80,80,0,9f1135446afdd847,21,0,f54cee9637b5b247,00ff9c5765a6afef,00,0080008000800080,04,018,9d582ad55952d548,0000,520643,0000000000000000,0000000000000000,019,0,0,1,0,0
81,81,0,a2ba8e34713e9735,17,0,07f54cee9637b5b2,ca09bf638b328309,00,0080008000800080,04,019,cb2e8a76cfdcf53e,0000,520664,0000000000000000,0000000000000000,019,0,0,1,0,0
82,82,0,f60b1824ba554fb9,1c,0,c6f6b648e17cae68,087b83b69ce8f9b1,00,0080008000800080,04,01a,b33fc9db97cd9d2e,0000,52067b,0000000000000000,0000000000000000,019,0,0,1,0,0
83,83,0,e5ecfd033c8eef0a,1d,0,4b1bdad92385f2b9,651933f8752a3411,00,0080008000800080,04,01b,98e479aafcca6df5,0000,520697,0000000000000000,0000000000000000,019,0,0,1,0,0
84,84,0,c3840901fe2fb271,1d,0,143040fea99dd2c6,417b3c2a8b8d1f1e,00,0080008000800080,04,01c,644c387c9042395d,0000,5206b4,0000000000000000,0000000000000000,019,0,0,1,0,0
85,85,0,5c5e479d08efd18d,1e,0,4cee9637b5b2470b,94d37a4756a14692,00,0080008000800080,04,01d,bd10c2fd99d0bd00,0000,5206d1,0000000000000000,0000000000000000,019,0,0,1,0,0
86,86,0,c9620209da85e72e,27,0,fd533ba58ded6c91,107307a97d11b7e7,00,0080008000800080,04,01e,f1dcbdfd95133dcc,0000,5206ef,0000000000000000,0000000000000000,019,0,0,1,0,0
87,87,0,2dabab700bc35f72,28,0,3ba58ded6c91c2f9,cab62374eed42ca6,00,0080008000800080,04,01f,8f6a9f364b9df57a,0000,520716,0000000000000000,0000000000000000,019,0,0,1,0,0
88,88,0,44b18610db6bc88c,25,0,081fd533ba58ded6,c2323c95179a7af8,00,0080008000800080,04,020,a10d7c388502bd1c,0000,52073e,0000000000000000,0000000000000000,019,0,0,1,0,0
89,89,0,03e7f52796dbb0b3,1b,0,44f143040fea99dd,6d22b00ee982cde0,00,0080008000800080,04,021,f2c78fe4b61425d7,0000,520763,0000000000000000,0000000000000000,019,0,0,1,0,0
90,90,0,3668e402d2a14d7b,1e,0,9637b5b2470be573,24220f92fee72b4f,00,0080008000800080,04,022,25b47e43b19b81a4,0000,52077e,0000000000000000,0000000000000000,019,0,0,1,0,0
91,91,0,8fda5e9ce6c073fc,27,0,91c2f95cd13c50c1,d5e8462ddd6c59cc,00,0080008000800080,04,023,0040c514d4815151,0000,52079c,0000000000000000,0000000000000000,019,0,0,1,0,0
92,92,0,853c5594c26a26a3,27,0,78a18207f54cee96,84e07dae2bf0f135,00,0080008000800080,04,024,95d04095d1d055c0,0000,5207c3,0000000000000000,0000000000000000,019,0,0,1,0,0
93,93,0,f4c9b979c146a85c,1b,0,0fea99dd2c6f6b64,da85249d93859b01,00,0080008000800080,04,025,a7aa1d5e039d1dba,0000,5207ea,0000000000000000,0000000000000000,019,0,0,1,0,0
94,94,0,791a3d60c0a887fe,23,0,faa6774b1bdad923,08c41fa1f90e561e,00,0080008000800080,04,026,f77bdc9b138c9d6a,0000,520805,0000000000000000,0000000000000000,019,0,0,1,0,0
95,95,0,575663375db0683f,1e,0,85f2b9a278a18207,af508cdbfe58b758,00,0080008000800080,04,027,8ad6cc49ee054dc7,0000,520828,0000000000000000,0000000000000000,019,0,0,1,0,0
96,96,0,258f0125547aedc8,13,0,1bdad92385f2b9a2,4940bfdc1725e6ef,00,0080008000800080,04,028,0e6fce32da9c717f,0000,520846,0000000000000000,0000000000000000,019,0,0,1,0,0
97,97,0,a9b2aa9e24612e87,19,0,cee9637b5b2470be,f18a49ff23cb72c3,00,0080008000800080,04,029,fce884c2b80905f9,0000,520859,0000000000000000,0000000000000000,019,0,0,1,0,0
98,98,0,1ae61b0834aa455f,22,0,207f54cee9637b5b,51483bc3f6dca8b9,00,0080008000800080,04,02a,4c8cba14d842d19d,0000,520872,0000000000000000,0000000000000000,019,0,0,1,0,0
99,99,0,61f5fced132c9eff,26,0,be57344f143040fe,5e255973b8356a74,00,0080008000800080,04,02b,eb66625e0f5e9d76,0000,520894,0000000000000000,0000000000000000,019,0,0,1,0,0
100,100,0,9dd3941911ee3fa2,20,0,3c50c103faa6774b,d2013b7c6acbcd5f,00,0080008000800080,04,02c,89cdfe50cd0255dc,0000,5208ba,0000000000000000,0000000000000000,019,0,0,1,0,0
101,101,0,3e4c4e578d18ffc1,25,0,b648e17cae689e28,a7d4933a0716e106,00,0080008000800080,04,02d,a4b12f47209a05a1,0000,5208da,0000000000000000,0000000000000000,019,0,0,1,0,0
102,102,0,62d9721219ca95f7,1d,0,57344f143040fea9,e6503347e93d51f7,00,0080008000800080,04,02e,5da53deee98ae9b4,0000,5208ff,0000000000000000,0000000000000000,019,0,0,1,0,0
103,103,0,9c3dbbbb601bd34f,1c,0,1c2f95cd13c50c10,b88af66334ae946c,00,0080008000800080,04,02f,2b9b7565bf86a18a,0000,52091c,0000000000000000,0000000000000000,019,0,0,1,0,0
104,104,0,a354a19600cb7bd8,25,0,278a18207f54cee9,a082727cd557da3a,00,0080008000800080,04,030,69780143bd580168,0000,520938,0000000000000000,0000000000000000,019,0,0,1,0,0
105,105,0,6b13f7e53786cba0,20,0,57344f143040fea9,0f2d62f04ea9c28d,00,0080008000800080,04,031,7ef6e7df0a0f99e7,0000,52095d,0000000000000000,0000000000000000,019,0,0,1,0,0
106,106,0,ec2678f412c2b15d,1a,0,4b1bdad92385f2b9,8c64624fd2bea76b,00,0080008000800080,04,032,bbb7a39b1f4f1da6,0000,52097d,0000000000000000,0000000000000000,019,0,0,1,0,0
107,107,0,b39fca4e8cf6d063,25,0,43040fea99dd2c6f,7595a8066d9d2c19,00,0080008000800080,04,033,f460ee82308b8571,0000,520997,0000000000000000,0000000000000000,019,0,0,1,0,0
108,108,0,4c952c4584d27a36,22,0,286081fd533ba58d,41c4a03dee6bb0b1,00,0080008000800080,04,034,20082d3c14033919,0000,5209bc,0000000000000000,0000000000000000,019,0,0,1,0,0
109,109,0,eee4d9a969d156b8,19,0,8207f54cee9637b5,5e9ac564ddd3c5db,00,0080008000800080,04,035,af22771e8b1f9d32,0000,5209de,0000000000000000,0000000000000000,019,0,0,1,0,0
110,110,0,2f690a2d70d0b897,29,0,f2b9a278a18207f5,1848845fe1b94e16,00,0080008000800080,04,036,9bff4bb3dfcd75ee,0000,5209f7,0000000000000000,0000000000000000,019,0,0,1,0,0
111,111,0,d8474673274da078,27,0,b9a278a18207f54c,afef10cc9bbe18f7,00,0080008000800080,04,037,ce92d9096a444d83,0000,520a20,0000000000000000,0000000000000000,019,0,0,1,0,0
112,112,0,97359f1135446afd,1c,0,d533ba58ded6c91c,830900ff9c5765a6,00,0080008000800080,04,038,1c5d7bd1c853514d,0000,520a47,0000000000000000,0000000000000000,019,0,0,1,0,0
113,113,0,4fb9a2ba8e34713e,15,0,c103faa6774b1bda,f9b1ca09bf638b32,00,0080008000800080,04,039,96cb728cf2d74ddb,0000,520a63,0000000000000000,0000000000000000,019,0,0,1,0,0
114,114,0,ef0af60b1824ba55,23,0,a278a18207f54cee,3411087b83b69ce8,00,0080008000800080,04,03a,0d74fc2bf99b6964,0000,520a78,0000000000000000,0000000000000000,019,0,0,1,0,0
115,115,0,b271e5ecfd033c8e,2d,0,637b5b2470be5734,1f1e651933f8752a,00,0080008000800080,04,03b,563665b7420f7127,0000,520a9b,0000000000000000,0000000000000000,019,0,0,1,0,0
